# GHZ S MA R 50
0.000000000	1.0000000000	180.00000000	0.0000000000	180.00000000	0.0000000000	0.00000000	1.0000000000	180.00000000
0.001000000	1.0000000000	179.93231321	0.0000000079	-36.47551815	0.0000000079	-36.47551815	0.9999989096	179.93218604
0.002000000	1.0000000003	179.86458562	0.0000000541	-137.41998804	0.0000000541	-137.41998804	0.9999963227	179.86498923
0.003000000	0.9996648567	179.77833210	0.0000056577	178.59836102	0.0000056577	178.59836102	1.0000176548	179.79670975
0.004000000	1.0001180998	179.72303500	0.0000031314	-76.61145355	0.0000031314	-76.61145355	0.9999822440	179.72737468
0.005000000	1.0000000142	179.66075047	0.0000008129	-139.64544636	0.0000008129	-139.64544636	0.9999803507	179.66326390
0.006000000	1.0000000193	179.59244870	0.0000007241	79.32152450	0.0000007241	79.32152450	1.0000675803	179.59197834
0.007000000	0.9999999784	179.52389915	0.0000022715	-51.72788016	0.0000022715	-51.72788016	0.9999441906	179.51979459
0.008000000	0.9999999789	179.45506591	0.0000031368	-140.97483912	0.0000031368	-140.97483912	0.9999581117	179.46125719
0.009000000	1.0000000897	179.38589100	0.0000021632	74.42531734	0.0000021632	74.42531734	1.0001409544	179.38452122
0.010000000	0.9999999131	179.31633833	0.0000062897	-54.66057432	0.0000062897	-54.66057432	0.9998890003	179.30885671
0.011000000	0.9999999382	179.24638541	0.0000075456	-140.98496598	0.0000075456	-140.98496598	0.9999344571	179.25725737
0.012000000	1.0000002526	179.17593633	0.0000042630	69.97466437	0.0000042630	69.97466437	1.0002262857	179.17331636
0.013000000	0.9999997723	179.10497550	0.0000128682	-57.22042970	0.0000128682	-57.22042970	0.9998261869	179.09384557
0.014000000	0.9999998708	179.03350313	0.0000142227	-139.37805577	0.0000142227	-139.37805577	0.9999103334	179.04930428
0.015000000	1.0000004965	178.96135690	0.0000063988	66.00357531	0.0000063988	66.00357531	1.0003119102	178.95753872
0.016000000	0.9999998921	178.88855203	0.0000221868	-59.24602448	0.0000221868	-59.24602448	0.9997684640	178.87383868
0.017000000	1.0000001552	178.81506418	0.0000239728	-135.78142061	0.0000239728	-135.78142061	0.9998843049	178.83532822
0.018000000	1.0000001620	178.74060618	0.0000058705	79.03416699	0.0000058705	79.03416699	1.0003906649	178.73629450
0.019000000	0.9999982416	178.66514288	0.0000324966	-71.61473559	0.0000324966	-71.61473559	0.9997353337	178.64727102
0.020000000	1.0000111114	178.58877453	0.0000478233	-130.58837809	0.0000478233	-130.58837809	0.9998694678	178.61298162
0.021000000	1.0000464660	178.51314996	0.0000236297	-56.92633340	0.0000236297	-56.92633340	1.0004760200	178.51072372
0.022000000	0.9999935126	178.43972310	0.0000709467	-22.28038804	0.0000709467	-22.28038804	0.9996673813	178.41735844
0.023000000	0.9998686828	178.35296577	0.0000755443	162.38433468	0.0000755443	162.38433468	0.9997282095	178.37467415
0.024000000	1.0002015927	178.26978589	0.0001214111	-107.50464666	0.0001214111	-107.50464666	1.0006992882	178.27379258
0.025000000	0.9998468478	178.21233108	0.0001774885	15.40233337	0.0001774885	15.40233337	0.9994812789	178.18306479
0.026000000	1.0000496352	178.08401280	0.0002975264	-156.66860378	0.0002975264	-156.66860378	0.9999840641	178.11225067
0.027000000	1.0000177253	178.06785510	0.0003345173	2.99836389	0.0003345173	2.99836389	1.0002698331	178.06575825
0.028000000	1.0000571997	177.89003060	0.0004328812	-160.81571096	0.0004328812	-160.81571096	1.0001334150	177.87000541
0.029000000	0.9996032142	177.92154055	0.0005095923	16.83976169	0.0005095923	16.83976169	0.9990154876	177.93249309
0.030000000	1.0010745837	177.70558484	0.0007414547	-129.96165193	0.0007414547	-129.96165193	1.0017559432	177.73017763
0.031000000	0.9981414255	177.69887147	0.0007820980	79.24538188	0.0007820980	79.24538188	0.9980215278	177.64697076
0.032000000	1.0019740175	177.65384663	0.0011220604	-60.37906874	0.0011220604	-60.37906874	1.0012955396	177.69302714
0.033000000	0.9995545731	177.33652394	0.0012374062	176.44946052	0.0012374062	176.44946052	1.0005299934	177.34655429
0.034000000	0.9976357448	177.52366127	0.0013642428	45.06050761	0.0013642428	45.06050761	0.9972624338	177.46949572
0.035000000	1.0035532331	177.36996656	0.0017815526	-71.23226391	0.0017815526	-71.23226391	1.0028744977	177.41534966
0.036000000	0.9998208968	176.95111043	0.0018997873	-177.53321768	0.0018997873	-177.53321768	1.0008608203	176.96907459
0.037000000	0.9953608618	177.18896326	0.0019791808	70.11958866	0.0019791808	70.11958866	0.9952892537	177.12385938
0.038000000	1.0028556896	177.26224335	0.0024600572	-34.29328766	0.0024600572	-34.29328766	1.0017499071	177.28528230
0.039000000	1.0048481297	176.66567766	0.0027898573	-125.99333415	0.0027898573	-125.99333415	1.0054838800	176.72404270
0.040000000	0.9954772083	176.47923029	0.0027686956	141.85381491	0.0027686956	141.85381491	0.9964005388	176.43463819
0.041000000	0.9943317603	176.94464851	0.0029909286	46.18201870	0.0029909286	46.18201870	0.9935114930	176.89669493
0.042000000	1.0049512307	176.91973024	0.0036202099	-40.31551198	0.0036202099	-40.31551198	1.0041620368	176.96277525
0.043000000	1.0078136907	176.17529990	0.0040459992	-117.52589789	0.0040459992	-117.52589789	1.0083932465	176.22100015
0.044000000	0.9969308780	175.77401775	0.0040441924	165.67424242	0.0040441924	165.67424242	0.9977785973	175.75584363
0.045000000	0.9896030390	176.22974766	0.0041127326	84.51641563	0.0041127326	84.51641563	0.9896156508	176.17817977
0.046000000	0.9979292128	176.67548851	0.0047529469	6.03351593	0.0047529469	6.03351593	0.9970333033	176.65279783
0.047000000	1.0104299209	176.24567394	0.0055848794	-63.36325799	0.0055848794	-63.36325799	1.0096274422	176.29099765
0.048000000	1.0099442310	175.31132749	0.0059981769	-127.39499663	0.0059981769	-127.39499663	1.0104911827	175.37708703
0.049000000	0.9963849854	174.87299484	0.0059040196	168.09327965	0.0059040196	168.09327965	0.9977503507	174.86442608
0.050000000	0.9857916655	175.33527031	0.0058375596	99.67720619	0.0058375596	99.67720619	0.9861232557	175.25722312
0.051000000	0.9908760509	176.02461529	0.0064455499	31.37684826	0.0064455499	31.37684826	0.9898267370	175.97776642
0.052000000	1.0065531330	176.00052184	0.0075988475	-30.04819294	0.0075988475	-30.04819294	1.0053954611	176.02767983
0.053000000	1.0168185944	175.11824159	0.0086117888	-84.97564394	0.0086117888	-84.97564394	1.0165340840	175.18595599
0.054000000	1.0115958038	174.04912677	0.0089994330	-137.33491158	0.0089994330	-137.33491158	1.0124262361	174.10605061
0.055000000	0.9951505044	173.60220433	0.0087779539	168.95508111	0.0087779539	168.95508111	0.9965563308	173.59567702
0.056000000	0.9816077427	174.05588045	0.0085352410	111.27137644	0.0085352410	111.27137644	0.9823212359	173.97974661
0.057000000	0.9827306665	174.90244888	0.0091102823	51.76391212	0.0091102823	51.76391212	0.9820338238	174.82388004
0.058000000	0.9980349990	175.27942841	0.0106799139	-3.29075281	0.0106799139	-3.29075281	0.9965436308	175.26585444
0.059000000	1.0157936077	174.74179195	0.0125495573	-51.76971003	0.0125495573	-51.76971003	1.0146803961	174.79617919
0.060000000	1.0233900520	173.53784064	0.0139495026	-95.75567661	0.0139495026	-95.75567661	1.0232827135	173.61946783
0.061000000	1.0155034567	172.29734881	0.0144883758	-138.26758397	0.0144883758	-138.26758397	1.0165073887	172.36584048
0.062000000	0.9965818027	171.67948199	0.0141344647	177.55849460	0.0141344647	177.55849460	0.9983139512	171.68217637
0.063000000	0.9787773314	171.96432665	0.0133719407	129.27960214	0.0133719407	129.27960214	0.9798818084	171.88687919
0.064000000	0.9728884169	172.82938394	0.0134097544	77.29175363	0.0134097544	77.29175363	0.9727370821	172.73851263
0.065000000	0.9826627297	173.63238527	0.0153498897	26.73575167	0.0153498897	26.73575167	0.9816324938	173.56295075
0.066000000	1.0037800308	173.69931436	0.0189548806	-18.30581001	0.0189548806	-18.30581001	1.0018600561	173.68441441
0.067000000	1.0235587827	172.78501178	0.0228231170	-58.45158134	0.0228231170	-58.45158134	1.0219647429	172.86952368
0.068000000	1.0312961997	171.30612708	0.0254799545	-94.96260767	0.0254799545	-94.96260767	1.0314788928	171.41724535
0.069000000	1.0253472292	169.78303431	0.0264510380	-128.77315084	0.0264510380	-128.77315084	1.0263753523	169.84190129
0.070000000	1.0071784042	168.59927026	0.0262146430	-162.17244382	0.0262146430	-162.17244382	1.0083184221	168.64255127
0.071000000	0.9821636186	168.24419375	0.0252020539	160.75373417	0.0252020539	160.75373417	0.9842932929	168.25351062
0.072000000	0.9641879566	168.90870305	0.0240565772	116.11998497	0.0240565772	116.11998497	0.9662108964	168.78354392
0.073000000	0.9645601888	169.93637220	0.0249436620	64.54754503	0.0249436620	64.54754503	0.9638704804	169.74659800
0.074000000	0.9804021229	170.45579445	0.0298614931	15.07144765	0.0298614931	15.07144765	0.9775795216	170.38761133
0.075000000	1.0023899279	170.17361750	0.0378717451	-25.35299786	0.0378717451	-25.35299786	1.0003184058	170.23788285
0.076000000	1.0242017296	169.12422196	0.0471117473	-57.89923479	0.0471117473	-57.89923479	1.0236432816	169.19628946
0.077000000	1.0399627594	167.34275634	0.0564003183	-85.91403283	0.0564003183	-85.91403283	1.0395200862	167.38278108
0.078000000	1.0419591017	165.05044418	0.0644864611	-112.12223935	0.0644864611	-112.12223935	1.0411499953	165.12222425
0.079000000	1.0259834822	162.79610533	0.0694434848	-138.28970446	0.0694434848	-138.28970446	1.0260850598	162.93279115
0.080000000	0.9968606472	161.23741694	0.0690715908	-165.71930834	0.0690715908	-165.71930834	0.9990556536	161.37127161
0.081000000	0.9675135956	160.74512925	0.0618660515	163.51883694	0.0618660515	163.51883694	0.9712393844	160.76259987
0.082000000	0.9522896741	161.07467066	0.0489270787	123.45406364	0.0489270787	123.45406364	0.9555314545	160.92663084
0.083000000	0.9589231791	161.36700548	0.0416430760	60.22169409	0.0416430760	60.22169409	0.9598512379	161.11953233
0.084000000	0.9841337301	160.59671653	0.0646136104	-5.30099876	0.0646136104	-5.30099876	0.9823274121	160.36924232
0.085000000	1.0151775306	158.09650860	0.1151200618	-46.13553090	0.1151200618	-46.13553090	1.0115134948	157.97275920
0.086000000	1.0347474825	153.71559012	0.1837851725	-75.98756170	0.1837851725	-75.98756170	1.0305843668	153.71795061
0.087000000	1.0254324623	147.68010607	0.2677349451	-101.79404813	0.2677349451	-101.79404813	1.0219763147	147.79191487
0.088000000	0.9726359260	140.45666682	0.3652952176	-125.92842245	0.3652952176	-125.92842245	0.9706952549	140.64627846
0.089000000	0.8668695690	132.80855231	0.4740421979	-149.40279596	0.4740421979	-149.40279596	0.8668133680	133.03802949
0.090000000	0.7071412849	126.28030164	0.5897307383	-172.75698669	0.5897307383	-172.75698669	0.7088741622	126.49653747
0.091000000	0.5101282101	125.08647179	0.7050627506	163.67404070	0.7050627506	163.67404070	0.5129353726	125.17515412
0.092000000	0.3468459557	141.54799857	0.8079720059	139.69067852	0.8079720059	139.69067852	0.3486982467	141.25770160
0.093000000	0.3828380148	172.58140392	0.8797430342	115.27676061	0.8797430342	115.27676061	0.3819283799	172.33529276
0.094000000	0.5650927744	177.91664283	0.8954810896	90.85679689	0.8954810896	90.85679689	0.5642521092	177.91116576
0.095000000	0.6985253513	166.81142989	0.8349380030	68.17882734	0.8349380030	68.17882734	0.6989801768	166.78076822
0.096000000	0.6731295700	151.53276893	0.7207918533	52.22230692	0.7207918533	52.22230692	0.6738923894	151.30906629
0.097000000	0.5066895948	143.97252824	0.6758993721	46.04643484	0.6758993721	46.04643484	0.5050653649	143.70296868
0.098000000	0.4427633488	149.98219069	0.7417194457	32.64703218	0.7417194457	32.64703218	0.4406326814	150.29740708
0.099000000	0.3829279027	149.11218048	0.7347554801	16.63321405	0.7347554801	16.63321405	0.3815295132	148.81899868
0.100000000	0.2639017104	162.40270007	0.7085083319	7.04858279	0.7085083319	7.04858279	0.2638988617	163.16716360
0.101000000	0.2880852603	-179.34409871	0.7535980336	-6.52197346	0.7535980336	-6.52197346	0.2863181724	-179.37327849
0.102000000	0.2883820405	-171.04670904	0.7493665492	-22.43661486	0.7493665492	-22.43661486	0.2909283723	-170.51349645
0.103000000	0.3481237021	-147.90516306	0.6948519851	-31.57783639	0.6948519851	-31.57783639	0.3507704704	-148.08073789
0.104000000	0.4990773096	-151.58347174	0.7567317692	-40.11738594	0.7567317692	-40.11738594	0.4988616160	-151.74713917
0.105000000	0.5553086283	-164.40024803	0.8529670019	-55.07145678	0.8529670019	-55.07145678	0.5552098532	-164.40928559
0.106000000	0.4952150610	-174.75472587	0.9072278404	-74.08037028	0.9072278404	-74.08037028	0.4963070162	-174.69738623
0.107000000	0.3721026434	-175.69727386	0.9095181251	-94.23219549	0.9095181251	-94.23219549	0.3740693319	-175.78256498
0.108000000	0.2805361205	-156.31071425	0.8707507551	-114.26922360	0.8707507551	-114.26922360	0.2813123620	-156.81457651
0.109000000	0.3318448947	-128.37043058	0.8058205200	-133.79738773	0.8058205200	-133.79738773	0.3296454727	-128.71407551
0.110000000	0.4794728959	-119.07658767	0.7261465018	-152.66262515	0.7261465018	-152.66262515	0.4760537336	-119.08430586
0.111000000	0.6391160218	-120.51202436	0.6386913285	-170.96199245	0.6386913285	-170.96199245	0.6359904413	-120.39669113
0.112000000	0.7799449328	-125.53342162	0.5504152200	171.01502587	0.5504152200	171.01502587	0.7781909994	-125.36537372
0.113000000	0.8904754481	-131.56022002	0.4675140763	153.25846553	0.4675140763	153.25846553	0.8902758651	-131.33980953
0.114000000	0.9670534705	-137.69744709	0.3902834664	136.06647562	0.3902834664	136.06647562	0.9675547862	-137.45371459
0.115000000	1.0129167856	-143.57994513	0.3160945437	119.12995908	0.3160945437	119.12995908	1.0136196850	-143.39693733
0.116000000	1.0350240516	-148.86489388	0.2481054710	101.27837477	0.2481054710	101.27837477	1.0368644340	-148.79717429
0.117000000	1.0383983489	-153.19415884	0.1923725309	82.27037669	0.1923725309	82.27037669	1.0421925383	-153.18797140
0.118000000	1.0256016070	-156.44399605	0.1458025682	63.50850756	0.1458025682	63.50850756	1.0298859211	-156.41839459
0.119000000	1.0022161850	-158.78207913	0.1015728975	43.40519303	0.1015728975	43.40519303	1.0045616997	-158.77782464
0.120000000	0.9784920817	-160.35568514	0.0659982699	14.40303974	0.0659982699	14.40303974	0.9789837830	-160.49519449
0.121000000	0.9623610140	-161.08984626	0.0484063453	-23.92308408	0.0484063453	-23.92308408	0.9632839441	-161.34717215
0.122000000	0.9540136390	-161.02831149	0.0386649305	-64.80286065	0.0386649305	-64.80286065	0.9554145339	-161.21077531
0.123000000	0.9513778809	-160.66517147	0.0401654320	-113.35743626	0.0401654320	-113.35743626	0.9504116740	-160.71406774
0.124000000	0.9570145638	-160.54162174	0.0527308951	-142.86664706	0.0527308951	-142.86664706	0.9532593291	-160.62073477
0.125000000	0.9730885206	-160.69328808	0.0577903503	-162.26051814	0.0577903503	-162.26051814	0.9702028760	-160.83541803
0.126000000	0.9933495989	-160.97578446	0.0604701465	174.78169979	0.0604701465	174.78169979	0.9924439969	-160.97425472
0.127000000	1.0102207019	-161.61632146	0.0670847159	156.47268958	0.0670847159	156.47268958	1.0079988567	-161.45611514
0.128000000	1.0248671177	-162.78574723	0.0665840013	142.87234428	0.0665840013	142.87234428	1.0215878137	-162.69713711
0.129000000	1.0386064958	-164.12831470	0.0623163612	124.47474347	0.0623163612	124.47474347	1.0382778051	-164.08581719
0.130000000	1.0451082051	-165.40205071	0.0626043135	107.26095223	0.0626043135	107.26095223	1.0462716719	-165.22144590
0.131000000	1.0429396468	-166.79070543	0.0577486424	94.17034936	0.0577486424	94.17034936	1.0424633745	-166.62034961
0.132000000	1.0378653907	-168.15858189	0.0504943732	75.34402719	0.0504943732	75.34402719	1.0388806555	-168.13340511
0.133000000	1.0287702464	-169.15252660	0.0479382163	57.71063499	0.0479382163	57.71063499	1.0320262517	-169.07731899
0.134000000	1.0137006450	-169.89838653	0.0408435919	42.76985156	0.0408435919	42.76985156	1.0152226876	-169.80927374
0.135000000	0.9988955248	-170.45341152	0.0347729740	19.62595465	0.0347729740	19.62595465	1.0003934525	-170.52828936
0.136000000	0.9859130467	-170.55748101	0.0318778498	0.74599391	0.0318778498	0.74599391	0.9889319594	-170.62117780
0.137000000	0.9729506964	-170.36765359	0.0256233220	-21.91667988	0.0256233220	-21.91667988	0.9738826362	-170.40375556
0.138000000	0.9648444448	-170.06354110	0.0243689244	-50.12101787	0.0243689244	-50.12101787	0.9650823372	-170.22776691
0.139000000	0.9622474763	-169.52590164	0.0221126948	-72.14306346	0.0221126948	-72.14306346	0.9631996647	-169.64378163
0.140000000	0.9626612885	-168.98345768	0.0215572699	-102.62850051	0.0215572699	-102.62850051	0.9614492676	-169.05811760
0.141000000	0.9686359442	-168.59364751	0.0228344226	-123.54586347	0.0228344226	-123.54586347	0.9672434342	-168.73019364
0.142000000	0.9781745825	-168.27827550	0.0225753870	-147.63813871	0.0225753870	-147.63813871	0.9770891698	-168.31497761
0.143000000	0.9887358697	-168.22310009	0.0248138495	-167.38462687	0.0248138495	-167.38462687	0.9861915925	-168.23569248
0.144000000	1.0012135172	-168.40585639	0.0245984222	174.77463317	0.0245984222	174.77463317	0.9996390901	-168.41821602
0.145000000	1.0123419823	-168.75094359	0.0259097666	155.83630546	0.0259097666	155.83630546	1.0107345973	-168.67098562
0.146000000	1.0215883485	-169.32869203	0.0257167485	140.94501567	0.0257167485	140.94501567	1.0199508460	-169.27217492
0.147000000	1.0287293185	-169.99554760	0.0255977947	123.02955009	0.0255977947	123.02955009	1.0283823432	-169.89986875
0.148000000	1.0318797968	-170.74137969	0.0252244765	108.67058776	0.0252244765	108.67058776	1.0312972015	-170.63254340
0.149000000	1.0322724394	-171.51233592	0.0240127762	91.65239304	0.0240127762	91.65239304	1.0327880919	-171.43212489
0.150000000	1.0290406545	-172.21039680	0.0232629329	76.63009532	0.0232629329	76.63009532	1.0298559568	-172.10683706
0.151000000	1.0230565800	-172.84215644	0.0214814369	59.86108822	0.0214814369	59.86108822	1.0241854649	-172.78881055
0.152000000	1.0151190728	-173.31162375	0.0203875618	43.58442879	0.0203875618	43.58442879	1.0168623433	-173.25951744
0.153000000	1.0056339040	-173.63015829	0.0184815694	26.14164141	0.0184815694	26.14164141	1.0071223794	-173.61936644
0.154000000	0.9962155391	-173.76170698	0.0172936322	8.15448686	0.0172936322	8.15448686	0.9981011646	-173.78013051
0.155000000	0.9871915007	-173.71592144	0.0156306947	-10.86895776	0.0156306947	-10.86895776	0.9885393422	-173.75872349
0.156000000	0.9799929232	-173.52214817	0.0146934562	-30.80356742	0.0146934562	-30.80356742	0.9812534228	-173.60153711
0.157000000	0.9748805428	-173.20313840	0.0135785786	-51.68004648	0.0135785786	-51.68004648	0.9754988939	-173.28683385
0.158000000	0.9725445428	-172.82751751	0.0131580802	-72.83626251	0.0131580802	-72.83626251	0.9727144664	-172.93209081
0.159000000	0.9729509108	-172.43001338	0.0127186579	-94.36340024	0.0127186579	-94.36340024	0.9725586397	-172.51793059
0.160000000	0.9759818144	-172.08131448	0.0128035023	-114.89713682	0.0128035023	-114.89713682	0.9751025853	-172.16665028
0.161000000	0.9812221005	-171.80962823	0.0128679533	-135.18810876	0.0128679533	-135.18810876	0.9800271271	-171.86441797
0.162000000	0.9880144637	-171.65985804	0.0131861546	-153.83027865	0.0131861546	-153.83027865	0.9865388900	-171.69708097
0.163000000	0.9957102960	-171.63841894	0.0134311880	-172.15063419	0.0134311880	-172.15063419	0.9942135621	-171.64271706
0.164000000	1.0034848726	-171.75683582	0.0136955189	170.99901213	0.0136955189	170.99901213	1.0019759179	-171.74080991
0.165000000	1.0106992974	-171.99817442	0.0138656256	154.29912905	0.0138656256	154.29912905	1.0094101899	-171.95501187
0.166000000	1.0166697520	-172.34783738	0.0139127252	138.58388415	0.0139127252	138.58388415	1.0155958063	-172.28943022
0.167000000	1.0209756673	-172.77314675	0.0138770804	122.88721062	0.0138770804	122.88721062	1.0202866488	-172.69743503
0.168000000	1.0232636992	-173.24546592	0.0136631139	107.66219406	0.0136631139	107.66219406	1.0229479484	-173.16422476
