# GHZ S MA R 50
0.000000000	1.0000000000	180.00000000	0.0000000000	180.00000000	0.0000000000	0.00000000	1.0000000000	180.00000000
0.001000000	1.0000000000	179.93231321	0.0000000066	-140.86185780	0.0000000066	-140.86185780	0.9999992153	179.93241759
0.002000000	0.9999999998	179.86458568	0.0000000559	-55.21540999	0.0000000559	-55.21540999	0.9999946764	179.86426243
0.003000000	0.9999012687	179.79295629	0.0000014222	166.23245322	0.0000014222	166.23245322	1.0000157935	179.79644880
0.004000000	0.9999999998	179.72884519	0.0000003526	-155.14214778	0.0000003526	-155.14214778	0.9999981333	179.73046567
0.005000000	0.9999999927	179.66074937	0.0000008113	-70.56941378	0.0000008113	-70.56941378	0.9999633318	179.65964916
0.006000000	1.0000000123	179.59244828	0.0000006432	27.68022369	0.0000006432	27.68022369	1.0000431202	179.59050423
0.007000000	1.0000000062	179.52390220	0.0000013541	-164.04267118	0.0000013541	-164.04267118	1.0000160725	179.52767123
0.008000000	0.9999999609	179.45506234	0.0000027921	-83.07029040	0.0000027921	-83.07029040	0.9999224335	179.45418652
0.009000000	1.0000000333	179.38588929	0.0000017749	-4.81297583	0.0000017749	-4.81297583	1.0000523672	179.38183365
0.010000000	1.0000000343	179.31634794	0.0000024987	-161.05666464	0.0000024987	-161.05666464	1.0000438597	179.32112901
0.011000000	0.9999999081	179.24637527	0.0000057190	-90.98688419	0.0000057190	-90.98688419	0.9999024733	179.24650525
0.012000000	1.0000000472	179.17593362	0.0000035962	-36.49776444	0.0000035962	-36.49776444	1.0000423170	179.17088890
0.013000000	1.0000000742	179.10499574	0.0000037865	-138.43580479	0.0000037865	-138.43580479	1.0000569611	179.10936358
0.014000000	0.9999998656	179.03348102	0.0000092313	-93.71717041	0.0000092313	-93.71717041	0.9999106104	179.03423562
0.015000000	1.0000000507	178.96135231	0.0000066636	-62.20258456	0.0000066636	-62.20258456	1.0000295580	178.95687775
0.016000000	1.0000000930	178.88858670	0.0000071752	-112.52669260	0.0000071752	-112.52669260	1.0000480126	178.89192739
0.017000000	0.9999998562	178.81509018	0.0000136852	-92.84518745	0.0000136852	-92.84518745	0.9999338855	178.81566679
0.018000000	1.0000000546	178.74082553	0.0000118144	-78.57283784	0.0000118144	-78.57283784	1.0000225943	178.73777777
0.019000000	1.0000000743	178.66576343	0.0000138965	-100.16699760	0.0000138965	-100.16699760	1.0000278079	178.66807854
0.020000000	0.9999998796	178.58980511	0.0000200627	-91.33247998	0.0000200627	-91.33247998	0.9999591157	178.58984200
0.021000000	1.0000000593	178.51291222	0.0000198897	-87.03403675	0.0000198897	-87.03403675	1.0000185139	178.51132553
0.022000000	1.0000000327	178.43503813	0.0000239227	-95.15538872	0.0000239227	-95.15538872	1.0000094483	178.43646787
0.023000000	0.9999999229	178.35608752	0.0000295065	-90.86804464	0.0000295065	-90.86804464	0.9999797472	178.35575420
0.024000000	1.0000000534	178.27601600	0.0000317454	-90.66849013	0.0000317454	-90.66849013	1.0000131945	178.27546865
0.025000000	0.9999999964	178.19475564	0.0000375171	-93.05728633	0.0000375171	-93.05728633	0.9999993354	178.19546277
0.026000000	0.9999999673	178.11221794	0.0000432576	-91.28613092	0.0000432576	-91.28613092	0.9999932440	178.11185410
0.027000000	1.0000000330	178.02834419	0.0000482866	-91.94228886	0.0000482866	-91.94228886	1.0000068153	178.02830962
0.028000000	0.9999999823	177.94304905	0.0000556117	-92.34323816	0.0000556117	-92.34323816	0.9999969612	177.94327260
0.029000000	0.9999999952	177.85624633	0.0000627154	-91.90139865	0.0000627154	-91.90139865	0.9999994992	177.85604660
0.030000000	1.0000000094	177.76785695	0.0000706175	-92.33227486	0.0000706175	-92.33227486	1.0000019753	177.76794307
0.031000000	0.9999999861	177.67778355	0.0000798184	-92.32779800	0.0000798184	-92.32779800	0.9999982812	177.67779334
0.032000000	1.0000000015	177.58593222	0.0000894455	-92.37067389	0.0000894455	-92.37067389	1.0000007922	177.58588286
0.033000000	0.9999999946	177.49220259	0.0001003541	-92.54593436	0.0001003541	-92.54593436	0.9999999640	177.49224762
0.034000000	0.9999999903	177.39648538	0.0001123071	-92.58441200	0.0001123071	-92.58441200	0.9999996793	177.39646143
0.035000000	0.9999999971	177.29866940	0.0001253823	-92.70438552	0.0001253823	-92.70438552	1.0000003238	177.29867474
0.036000000	0.9999999848	177.19863414	0.0001398864	-92.80700454	0.0001398864	-92.80700454	0.9999997807	177.19863850
0.037000000	0.9999999961	177.09625150	0.0001557458	-92.89449559	0.0001557458	-92.89449559	1.0000000728	177.09624482
0.038000000	0.9999999676	176.99138885	0.0001732714	-93.01733607	0.0001732714	-93.01733607	0.9999999684	176.99139443
0.039000000	1.0000000052	176.88390140	0.0001924259	-93.11899242	0.0001924259	-93.11899242	0.9999999860	176.88389766
0.040000000	0.9999999945	176.77363164	0.0002136305	-93.20213051	0.0002136305	-93.20213051	0.9999999935	176.77363257
0.041000000	0.9999998961	176.66042595	0.0002370526	-93.34017722	0.0002370526	-93.34017722	0.9999998725	176.66042846
0.042000000	0.9999998863	176.54411145	0.0002625822	-93.50469332	0.0002625822	-93.50469332	0.9999999596	176.54411275
0.043000000	1.0000000088	176.42449346	0.0002904921	-93.63316393	0.0002904921	-93.63316393	1.0000000885	176.42449093
0.044000000	1.0000001785	176.30136850	0.0003212397	-93.72468067	0.0003212397	-93.72468067	1.0000002300	176.30136093
0.045000000	1.0000003385	176.17452462	0.0003552088	-93.80891631	0.0003552088	-93.80891631	1.0000003304	176.17451397
0.046000000	1.0000005045	176.04373579	0.0003926747	-93.90817805	0.0003926747	-93.90817805	1.0000004485	176.04372162
0.047000000	1.0000007197	175.90875942	0.0004339102	-94.03988120	0.0004339102	-94.03988120	1.0000006620	175.90874085
0.048000000	1.0000009697	175.76933642	0.0004793332	-94.22702459	0.0004793332	-94.22702459	1.0000010014	175.76931227
0.049000000	1.0000010330	175.62518741	0.0005297745	-94.49252163	0.0005297745	-94.49252163	1.0000012997	175.62516108
0.050000000	1.0000003534	175.47599373	0.0005867512	-94.81035966	0.0005867512	-94.81035966	1.0000009546	175.47597868
0.051000000	0.9999984126	175.32136087	0.0006519372	-95.03569280	0.0006519372	-95.03569280	0.9999991483	175.32137845
0.052000000	0.9999961997	175.16081913	0.0007248362	-94.96292804	0.0007248362	-94.96292804	0.9999963937	175.16087260
0.053000000	0.9999973041	174.99397864	0.0008009404	-94.66150626	0.0008009404	-94.66150626	0.9999964112	174.99401764
0.054000000	1.0000034870	174.82073949	0.0008778670	-94.72920555	0.0008778670	-94.72920555	1.0000024248	174.82069618
0.055000000	1.0000059835	174.64091611	0.0009679419	-95.55636121	0.0009679419	-95.55636121	1.0000066393	174.64083927
0.056000000	0.9999949257	174.45325585	0.0010864835	-96.10908142	0.0010864835	-96.10908142	0.9999964645	174.45329532
0.057000000	0.9999892995	174.25629588	0.0012133885	-95.49842958	0.0012133885	-95.49842958	0.9999883830	174.25638981
0.058000000	1.0000092961	174.05110780	0.0013255236	-95.41686584	0.0013255236	-95.41686584	1.0000077376	174.05103031
0.059000000	1.0000075694	173.83813827	0.0014727287	-96.68882862	0.0014727287	-96.68882862	1.0000094850	173.83807230
0.060000000	0.9999766538	173.61253616	0.0016687156	-96.53837993	0.0016687156	-96.53837993	0.9999769447	173.61267176
0.061000000	1.0000092124	173.37502889	0.0018333588	-96.00008148	0.0018333588	-96.00008148	1.0000069028	173.37497370
0.062000000	1.0000146219	173.12984804	0.0020379483	-97.35695439	0.0020379483	-97.35695439	1.0000168000	173.12976892
0.063000000	0.9999593910	172.86655649	0.0023170714	-97.13164823	0.0023170714	-97.13164823	0.9999590441	172.86670426
0.064000000	1.0000329943	172.58944299	0.0025508776	-97.01937328	0.0025508776	-97.01937328	1.0000314344	172.58932671
0.065000000	0.9999846640	172.30230637	0.0028815938	-98.18092373	0.0028815938	-98.18092373	0.9999870509	172.30233470
0.066000000	0.9999689480	171.98694545	0.0032509503	-97.67621647	0.0032509503	-97.67621647	0.9999669332	171.98699906
0.067000000	1.0000538034	171.66417674	0.0036281580	-98.45135260	0.0036281580	-98.45135260	1.0000548126	171.66408474
0.068000000	0.9999089275	171.31201970	0.0041362125	-98.74108413	0.0041362125	-98.74108413	0.9999088750	171.31210265
0.069000000	1.0000774808	170.93748035	0.0046588087	-98.95153933	0.0046588087	-98.95153933	1.0000770739	170.93743650
0.070000000	0.9999068198	170.54402994	0.0052963815	-99.52104385	0.0052963815	-99.52104385	0.9999070422	170.54402731
0.071000000	1.0000408520	170.10541497	0.0060534302	-99.94163397	0.0060534302	-99.94163397	1.0000413885	170.10545460
0.072000000	0.9999428257	169.65644176	0.0068933428	-100.15713372	0.0068933428	-100.15713372	0.9999411757	169.65638245
0.073000000	0.9999749778	169.14195425	0.0079501122	-101.17943930	0.0079501122	-101.17943930	0.9999778355	169.14200179
0.074000000	0.9999774991	168.61583055	0.0091481048	-100.93786085	0.0091481048	-100.93786085	0.9999726174	168.61583050
0.075000000	0.9999036113	168.00793549	0.0106075611	-102.53902541	0.0106075611	-102.53902541	0.9999102709	168.00800300
0.076000000	0.9999725282	167.37562175	0.0123917043	-102.02132986	0.0123917043	-102.02132986	0.9999670893	167.37577751
0.077000000	0.9998232152	166.64630370	0.0144716192	-104.05967691	0.0144716192	-104.05967691	0.9998384325	166.64642331
0.078000000	0.9998955394	165.86506123	0.0171881584	-103.47985963	0.0171881584	-103.47985963	0.9998942594	165.86565078
0.079000000	0.9997217249	164.96834279	0.0203555559	-105.77699677	0.0203555559	-105.77699677	0.9997405423	164.96963044
0.080000000	0.9998112417	163.97036546	0.0245866300	-105.25540028	0.0245866300	-105.25540028	0.9997699561	163.97229406
0.081000000	0.9996463918	162.84394168	0.0295819904	-107.57972695	0.0295819904	-107.57972695	0.9995971786	162.84208368
0.082000000	0.9992458890	161.52133183	0.0363254088	-108.12644520	0.0363254088	-108.12644520	0.9992994877	161.51627696
0.083000000	0.9987568440	159.97644878	0.0455794598	-110.53439871	0.0455794598	-110.53439871	0.9988201244	159.98510937
0.084000000	0.9988994843	158.13307799	0.0572901797	-111.31004559	0.0572901797	-111.31004559	0.9987228320	158.12551709
0.085000000	0.9964642674	155.89449496	0.0743598773	-114.54157211	0.0743598773	-114.54157211	0.9967021943	155.90205580
0.086000000	0.9958550311	153.03499161	0.0983315644	-116.78375216	0.0983315644	-116.78375216	0.9956422958	153.02190425
0.087000000	0.9908960820	149.22008163	0.1357061125	-120.53755542	0.1357061125	-120.53755542	0.9908741696	149.23933660
0.088000000	0.9795104374	143.91980638	0.1944254121	-126.58788503	0.1944254121	-126.58788503	0.9798484062	143.91604456
0.089000000	0.9556636115	135.65831567	0.2960019492	-134.17979849	0.2960019492	-134.17979849	0.9556739930	135.64056183
0.090000000	0.8712886819	121.07584574	0.4887996707	-149.06220301	0.4887996707	-149.06220301	0.8711937450	121.06400987
0.091000000	0.5612701774	91.34035088	0.8277329848	-178.71349569	0.8277329848	-178.71349569	0.5612525215	91.33095967
0.092000000	0.1153273125	-132.17238870	0.9945618891	136.82138059	0.9945618891	136.82138059	0.1153060752	-132.15551533
0.093000000	0.5483288899	-164.55952111	0.8352676941	105.63550866	0.8352676941	105.63550866	0.5483221259	-164.55875159
0.094000000	0.6983727120	178.49037085	0.7134089862	88.67070335	0.7134089862	88.67070335	0.6983776753	178.49228456
0.095000000	0.7451699911	167.40429531	0.6655742849	77.40261931	0.6655742849	77.40261931	0.7451270702	167.39297723
0.096000000	0.7463898515	157.74189092	0.6700219759	67.56358079	0.6700219759	67.56358079	0.7461332953	157.73670338
0.097000000	0.7058903152	147.67699148	0.7110561757	57.34264533	0.7110561757	57.34264533	0.7057493585	147.64779660
0.098000000	0.6179621680	135.57893020	0.7835434872	45.72737159	0.7835434872	45.72737159	0.6182211763	135.60683359
0.099000000	0.4628085864	120.28740020	0.8860436860	30.66499861	0.8860436860	30.66499861	0.4631732275	120.29201428
0.100000000	0.2205901776	101.62556247	0.9741503842	11.72116173	0.9741503842	11.72116173	0.2202518785	101.66080457
0.101000000	0.0731879489	-97.60591388	0.9933484695	-9.00322458	0.9933484695	-9.00322458	0.0734506366	-97.59116961
0.102000000	0.3320782116	-118.99289051	0.9463865301	-28.83571547	0.9463865301	-28.83571547	0.3322996863	-119.05000596
0.103000000	0.5111982824	-134.84809477	0.8581662686	-45.05466234	0.8581662686	-45.05466234	0.5110434173	-134.81290052
0.104000000	0.6090016488	-148.07399293	0.7925603243	-57.93126119	0.7925603243	-57.93126119	0.6088124734	-148.07962439
0.105000000	0.6555173187	-158.86520155	0.7565638661	-68.84775053	0.7565638661	-68.84775053	0.6554707105	-158.87196499
0.106000000	0.6566076924	-169.45396049	0.7560761815	-79.37236425	0.7560761815	-79.37236425	0.6565813448	-169.45388997
0.107000000	0.6008221584	178.60449343	0.7996960976	-91.22913260	0.7996960976	-91.22913260	0.6008142463	178.60419928
0.108000000	0.4436478711	162.34852622	0.8945442163	-107.91982521	0.8945442163	-107.91982521	0.4436320061	162.34551817
0.109000000	0.0917866585	135.29577708	0.9976921201	-133.91082197	0.9976921201	-133.91082197	0.0916742690	135.31285562
0.110000000	0.4274720999	-78.59174982	0.9016258288	-168.39191862	0.9016258288	-168.39191862	0.4276210976	-78.60388791
0.111000000	0.7762393862	-106.97297926	0.6326797612	162.85441552	0.6326797612	162.85441552	0.7763848476	-106.98912538
0.112000000	0.9068037536	-124.23326145	0.4187770499	146.01830447	0.4187770499	146.01830447	0.9068138722	-124.25182023
0.113000000	0.9574539601	-134.46766456	0.2888977171	135.40804778	0.2888977171	135.40804778	0.9573203307	-134.48575385
0.114000000	0.9767146292	-141.17586787	0.2079865850	129.18618614	0.2079865850	129.18618614	0.9764286237	-141.18854533
0.115000000	0.9874638974	-145.84778249	0.1578546067	124.38697377	0.1578546067	124.38697377	0.9871499631	-145.85307151
0.116000000	0.9917963767	-149.43041678	0.1220886423	120.86729592	0.1220886423	120.86729592	0.9914990565	-149.43288615
0.117000000	0.9944064047	-152.10814005	0.0977605517	118.23127688	0.0977605517	118.23127688	0.9941450843	-152.10994180
0.118000000	0.9970510547	-154.36159407	0.0791496519	115.83550152	0.0791496519	115.83550152	0.9968380654	-154.36589927
0.119000000	0.9973425425	-156.21751147	0.0656677004	114.30779303	0.0656677004	114.30779303	0.9971940868	-156.22389031
0.120000000	0.9983274982	-157.73102387	0.0552791568	112.02271081	0.0552791568	112.02271081	0.9982968146	-157.73877346
0.121000000	0.9991790747	-159.07928258	0.0464655224	110.74450785	0.0464655224	110.74450785	0.9992310552	-159.08569634
0.122000000	0.9991740329	-160.22909669	0.0405583762	110.08127359	0.0405583762	110.08127359	0.9992471753	-160.22891027
0.123000000	0.9994310427	-161.23301199	0.0353648682	108.23526790	0.0353648682	108.23526790	0.9994687149	-161.22934013
0.124000000	0.9994876532	-162.14537003	0.0303140441	107.82056094	0.0303140441	107.82056094	0.9994500721	-162.14485239
0.125000000	0.9995901700	-162.94985687	0.0269834388	107.75598742	0.0269834388	107.75598742	0.9995632557	-162.95124100
0.126000000	0.9998371028	-163.68115149	0.0241434629	105.87118342	0.0241434629	105.87118342	0.9998671049	-163.68077704
0.127000000	0.9996891738	-164.34490657	0.0211156698	105.27343674	0.0211156698	105.27343674	0.9996896896	-164.34470305
0.128000000	0.9997424386	-164.93481782	0.0190184382	105.72861904	0.0190184382	105.72861904	0.9997273214	-164.93544501
0.129000000	1.0000147611	-165.49123376	0.0173942264	104.45410251	0.0173942264	104.45410251	1.0000217265	-165.49049659
0.130000000	0.9998469941	-166.00930092	0.0154899804	103.43343261	0.0154899804	103.43343261	0.9998507930	-166.00953217
0.131000000	0.9997489084	-166.46354412	0.0140069820	103.87553392	0.0140069820	103.87553392	0.9997465693	-166.46389067
0.132000000	1.0000343252	-166.89463402	0.0129676910	103.42265524	0.0129676910	103.42265524	1.0000289335	-166.89431485
0.133000000	1.0000234525	-167.31371833	0.0118085425	102.23833549	0.0118085425	102.23833549	1.0000297796	-167.31359718
0.134000000	0.9997796175	-167.68455295	0.0107207925	102.27508320	0.0107207925	102.27508320	0.9997796177	-167.68484445
0.135000000	0.9999357745	-168.02369325	0.0099509924	102.33415057	0.0099509924	102.33415057	0.9999320292	-168.02364458
0.136000000	1.0001176350	-168.36395600	0.0092203144	101.51562647	0.0092203144	101.51562647	1.0001188122	-168.36380137
0.137000000	0.9999148474	-168.68091377	0.0084657823	101.12653861	0.0084657823	101.12653861	0.9999166752	-168.68098629
0.138000000	0.9998392346	-168.95989497	0.0078577191	101.19411810	0.0078577191	101.19411810	0.9998380770	-168.95995678
0.139000000	1.0000625639	-169.23275250	0.0073370181	100.80022426	0.0073370181	100.80022426	1.0000620934	-169.23270194
0.140000000	1.0000665912	-169.50476310	0.0068168363	100.40724448	0.0068168363	100.40724448	1.0000670831	-169.50476171
0.141000000	0.9998724729	-169.74908853	0.0063621721	100.32312955	0.0063621721	100.32312955	0.9998722138	-169.74909086
0.142000000	0.9999306335	-169.97214756	0.0059649360	99.99671087	0.0059649360	99.99671087	0.9999310587	-169.97212493
0.143000000	1.0000934862	-170.19805737	0.0055711544	99.69070109	0.0055711544	99.69070109	1.0000938949	-170.19810728
0.144000000	1.0000071383	-170.41695270	0.0052280876	99.74732550	0.0052280876	99.74732550	1.0000058637	-170.41697149
0.145000000	0.9998864999	-170.61216148	0.0049436618	99.48056670	0.0049436618	99.48056670	0.9998863214	-170.61206855
0.146000000	0.9999903670	-170.79765546	0.0046429676	98.91767642	0.0046429676	98.91767642	0.9999922743	-170.79765643
0.147000000	1.0000798634	-170.98648770	0.0043479610	98.97666585	0.0043479610	98.97666585	1.0000796246	-170.98660995
0.148000000	0.9999763692	-171.16550802	0.0041300990	99.21743696	0.0041300990	99.21743696	0.9999740624	-171.16548106
0.149000000	0.9999157856	-171.32689935	0.0039341136	98.63404574	0.0039341136	98.63404574	0.9999164846	-171.32675994
0.150000000	1.0000159926	-171.48423798	0.0036931290	98.05860704	0.0036931290	98.05860704	1.0000185124	-171.48429037
0.151000000	1.0000585622	-171.64338084	0.0034763740	98.47691842	0.0034763740	98.47691842	1.0000574523	-171.64352839
0.152000000	0.9999684140	-171.79287684	0.0033366732	98.71580629	0.0033366732	98.71580629	0.9999658070	-171.79280339
0.153000000	0.9999404252	-171.92969260	0.0031909332	97.87973374	0.0031909332	97.87973374	0.9999418528	-171.92954241
0.154000000	1.0000217435	-172.06462818	0.0029959852	97.38338410	0.0029959852	97.38338410	1.0000243674	-172.06471675
0.155000000	1.0000422524	-172.20015190	0.0028355844	98.05370219	0.0028355844	98.05370219	1.0000406163	-172.20030202
0.156000000	0.9999716900	-172.32749662	0.0027426751	98.25187992	0.0027426751	98.25187992	0.9999690766	-172.32739925
0.157000000	0.9999567499	-172.44550272	0.0026311536	97.26518222	0.0026311536	97.26518222	0.9999584862	-172.44535339
0.158000000	1.0000187047	-172.56220404	0.0024736266	96.82289932	0.0024736266	96.82289932	1.0000213055	-172.56230419
0.159000000	1.0000319588	-172.67891386	0.0023507800	97.63728157	0.0023507800	97.63728157	1.0000302232	-172.67906272
0.160000000	0.9999790021	-172.78920189	0.0022859943	97.84858501	0.0022859943	97.84858501	0.9999764033	-172.78910446
0.161000000	0.9999668566	-172.89229549	0.0022013172	96.79978019	0.0022013172	96.79978019	0.9999685007	-172.89214638
0.162000000	1.0000126031	-172.99403160	0.0020743753	96.33066416	0.0020743753	96.33066416	1.0000152114	-172.99412142
0.163000000	1.0000255154	-173.09559475	0.0019754372	97.19552752	0.0019754372	97.19552752	1.0000240435	-173.09574460
0.164000000	0.9999870602	-173.19237352	0.0019274670	97.50626899	0.0019274670	97.50626899	0.9999844376	-173.19229568
0.165000000	0.9999735793	-173.28339356	0.0018650270	96.47824781	0.0018650270	96.47824781	0.9999748084	-173.28324300
0.166000000	1.0000059637	-173.37279270	0.0017636001	95.89589032	0.0017636001	95.89589032	1.0000085929	-173.37285484
0.167000000	1.0000207393	-173.46197387	0.0016798445	96.71341308	0.0016798445	96.71341308	1.0000198130	-173.46212426
0.168000000	0.9999944867	-173.54776673	0.0016411519	97.19813657	0.0016411519	97.19813657	0.9999918739	-173.54772340
