# GHZ S MA R 50
0.000000000	0.0000000000	180.00000000	1.0000000000	0.00000000	1.0000000000	0.00000000	0.0000000000	180.00000000
0.010000000	0.0173248825	-93.28862076	0.9998376241	-2.40620156	0.9998376241	-2.40620156	0.0173248825	-93.28862076
0.020000000	0.0345145186	-95.35533597	0.9995067267	-4.81292092	0.9995067267	-4.81292092	0.0345145186	-95.35533597
0.030000000	0.0519689319	-97.40836642	0.9987494208	-7.22270195	0.9987494208	-7.22270195	0.0519689319	-97.40836642
0.040000000	0.0692685276	-99.68795916	0.9976208032	-9.62303013	0.9976208032	-9.62303013	0.0692685276	-99.68795916
0.050000000	0.0862340249	-102.01307728	0.9963031552	-12.01675049	0.9963031552	-12.01675049	0.0862340249	-102.01307728
0.060000000	0.1027526630	-104.39184879	0.9947165755	-14.39615792	0.9947165755	-14.39615792	0.1027526630	-104.39184879
0.070000000	0.1191369367	-106.75180365	0.9929319672	-16.77787777	0.9929319672	-16.77787777	0.1191369367	-106.75180365
0.080000000	0.1350566426	-109.12381581	0.9908856913	-19.14410137	0.9908856913	-19.14410137	0.1350566426	-109.12381581
0.090000000	0.1504536604	-111.48093721	0.9886488768	-21.49305247	0.9886488768	-21.49305247	0.1504536604	-111.48093721
0.100000000	0.1655668112	-113.84083543	0.9861964236	-23.84009061	0.9861964236	-23.84009061	0.1655668112	-113.84083543
0.110000000	0.1800628911	-116.17363784	0.9836354393	-26.16738184	0.9836354393	-26.16738184	0.1800628911	-116.17363784
0.120000000	0.1940411445	-118.48035425	0.9809994686	-28.48214865	0.9809994686	-28.48214865	0.1940411445	-118.48035425
0.130000000	0.2074433768	-120.78257825	0.9782465824	-30.78245552	0.9782465824	-30.78245552	0.2074433768	-120.78257825
0.140000000	0.2202588941	-123.06821476	0.9754449516	-33.06912601	0.9754449516	-33.06912601	0.2202588941	-123.06821476
0.150000000	0.2324343395	-125.33557552	0.9726319669	-35.34047515	0.9726319669	-35.34047515	0.2324343395	-125.33557552
0.160000000	0.2439467032	-127.61474488	0.9697113511	-37.59659135	0.9697113511	-37.59659135	0.2439467032	-127.61474488
0.170000000	0.2549346497	-129.81192837	0.9671150156	-39.84715030	0.9671150156	-39.84715030	0.2549346497	-129.81192837
0.180000000	0.2652810531	-132.08994264	0.9641563908	-42.08675979	0.9641563908	-42.08675979	0.2652810531	-132.08994264
0.190000000	0.2748102609	-134.31893567	0.9614387417	-44.30648101	0.9614387417	-44.30648101	0.2748102609	-134.31893567
0.200000000	0.2835835197	-136.45958144	0.9592043674	-46.51146412	0.9592043674	-46.51146412	0.2835835197	-136.45958144
0.210000000	0.2910964491	-138.67672482	0.9566752737	-48.67309575	0.9566752737	-48.67309575	0.2910964491	-138.67672482
0.220000000	0.2989409408	-140.87333029	0.9543499675	-50.88834703	0.9543499675	-50.88834703	0.2989409408	-140.87333029
0.230000000	0.3052148323	-143.08057166	0.9520936191	-53.04491902	0.9520936191	-53.04491902	0.3052148323	-143.08057166
0.240000000	0.3109703921	-145.22293387	0.9503370245	-55.20771888	0.9503370245	-55.20771888	0.3109703921	-145.22293387
0.250000000	0.3160696178	-147.37963248	0.9486847096	-57.37033463	0.9486847096	-57.37033463	0.3160696178	-147.37963248
0.260000000	0.3204103651	-149.53585733	0.9472379396	-59.52854363	0.9472379396	-59.52854363	0.3204103651	-149.53585733
0.270000000	0.3239488628	-151.68094605	0.9460788404	-61.68169739	0.9460788404	-61.68169739	0.3239488628	-151.68094605
0.280000000	0.3266504760	-153.82905445	0.9451493024	-63.82977241	0.9451493024	-63.82977241	0.3266504760	-153.82905445
0.290000000	0.3285966417	-155.98013279	0.9444688309	-65.97986745	0.9444688309	-65.97986745	0.3285966417	-155.98013279
0.300000000	0.3297324337	-158.13099484	0.9440738903	-68.13090171	0.9440738903	-68.13090171	0.3297324337	-158.13099484
0.310000000	0.3300692083	-160.28579147	0.9439573106	-70.28589136	0.9439573106	-70.28589136	0.3300692083	-160.28579147
0.320000000	0.3295915380	-162.44628109	0.9441237423	-72.44630160	0.9441237423	-72.44630160	0.3295915380	-162.44628109
0.330000000	0.3282920884	-164.61415442	0.9445762605	-74.61415509	0.9445762605	-74.61415509	0.3282920884	-164.61415442
0.340000000	0.3261621321	-166.79144585	0.9453138452	-76.79144606	0.9453138452	-76.79144606	0.3261621321	-166.79144585
0.350000000	0.3231921803	-168.98016466	0.9463333566	-78.98016534	0.9463333566	-78.98016534	0.3231921803	-168.98016466
0.360000000	0.3193724586	-171.18231215	0.9476292718	-81.18231253	0.9476292718	-81.18231253	0.3193724586	-171.18231215
0.370000000	0.3146930238	-173.39988268	0.9491935002	-83.39988269	0.9491935002	-83.39988269	0.3146930238	-173.39988268
0.380000000	0.3091439282	-175.63485176	0.9510152634	-85.63485173	0.9510152634	-85.63485173	0.3091439282	-175.63485176
0.390000000	0.3027154547	-177.88916167	0.9530809796	-87.88916168	0.9530809796	-87.88916168	0.3027154547	-177.88916167
0.400000000	0.2953984070	179.83529539	0.9553741577	-90.16470461	0.9553741577	-90.16470461	0.2953984070	179.83529539
0.410000000	0.2871844556	177.53669526	0.9578752990	-92.46330475	0.9578752990	-92.46330475	0.2871844556	177.53669526
0.420000000	0.2780665449	175.21330073	0.9605618130	-94.78669927	0.9605618130	-94.78669927	0.2780665449	175.21330073
0.430000000	0.2680393621	172.86348238	0.9634079615	-97.13651762	0.9634079615	-97.13651762	0.2680393621	172.86348238
0.440000000	0.2570998653	170.48574073	0.9663848401	-99.51425927	0.9663848401	-99.51425927	0.2570998653	170.48574073
0.450000000	0.2452478675	168.07872973	0.9694604084	-101.92127027	0.9694604084	-101.92127027	0.2452478675	168.07872973
0.460000000	0.2324866709	165.64128120	0.9725995825	-104.35871880	0.9725995825	-104.35871880	0.2324866709	165.64128120
0.470000000	0.2188237423	163.17242989	0.9757644028	-106.82757011	0.9757644028	-106.82757011	0.2188237423	163.17242989
0.480000000	0.2042714149	160.67143857	0.9789142910	-109.32856143	0.9789142910	-109.32856143	0.2042714149	160.67143857
0.490000000	0.1888476013	158.13782246	0.9820064070	-111.86217754	0.9820064070	-111.86217754	0.1888476013	158.13782246
0.500000000	0.1725764933	155.57137219	0.9849961188	-114.42862781	0.9849961188	-114.42862781	0.1725764933	155.57137219
0.510000000	0.1554892247	152.97217432	0.9878375884	-117.02782568	0.9878375884	-117.02782568	0.1554892247	152.97217432
0.520000000	0.1376244667	150.34062830	0.9904844805	-119.65937170	0.9904844805	-119.65937170	0.1376244667	150.34062830
0.530000000	0.1190289229	147.67745874	0.9928907873	-122.32254126	0.9928907873	-122.32254126	0.1190289229	147.67745874
0.540000000	0.0997576928	144.98372180	0.9950117601	-125.01627820	0.9950117601	-125.01627820	0.0997576928	144.98372180
0.550000000	0.0798744696	142.26080453	0.9968049303	-127.73919547	0.9968049303	-127.73919547	0.0798744696	142.26080453
0.560000000	0.0594515457	139.51041615	0.9982311925	-130.48958385	0.9982311925	-130.48958385	0.0594515457	139.51041615
0.570000000	0.0385696022	136.73457039	0.9992559161	-133.26542961	0.9992559161	-133.26542961	0.0385696022	136.73457039
0.580000000	0.0173172703	133.93555843	0.9998500448	-136.06444157	0.9998500448	-136.06444157	0.0173172703	133.93555843
0.590000000	0.0042095388	-48.88408790	0.9999911399	-138.88408790	0.9999911399	-138.88408790	0.0042095388	-48.88408790
0.600000000	0.0259085215	-51.72164229	0.9996643179	-141.72164229	0.9996643179	-141.72164229	0.0259085215	-51.72164229
0.610000000	0.0476720646	-54.57423904	0.9988630408	-144.57423904	0.9988630408	-144.57423904	0.0476720646	-54.57423904
0.620000000	0.0693884812	-57.43893579	0.9975897146	-147.43893579	0.9975897146	-147.43893579	0.0693884812	-57.43893579
0.630000000	0.0909433505	-60.31278271	0.9958560674	-150.31278271	0.9958560674	-150.31278271	0.0909433505	-60.31278271
0.640000000	0.1122208981	-63.19289612	0.9936832846	-153.19289612	0.9936832846	-153.19289612	0.1122208981	-63.19289612
0.650000000	0.1331053527	-66.07653490	0.9911018944	-156.07653490	0.9911018944	-156.07653490	0.1331053527	-66.07653490
0.660000000	0.1534822088	-68.96117752	0.9881514113	-158.96117752	0.9881514113	-158.96117752	0.1534822088	-68.96117752
0.670000000	0.1732393314	-71.84459805	0.9848797561	-161.84459805	0.9848797561	-161.84459805	0.1732393314	-71.84459805
0.680000000	0.1922678446	-74.72493923	0.9813424866	-164.72493923	0.9813424866	-164.72493923	0.1922678446	-74.72493923
0.690000000	0.2104627553	-77.60078170	0.9776018764	-167.60078170	0.9776018764	-167.60078170	0.2104627553	-77.60078170
0.700000000	0.2277232759	-80.47120821	0.9737258904	-170.47120821	0.9737258904	-170.47120821	0.2277232759	-80.47120821
0.710000000	0.2439528244	-83.33586282	0.9697871001	-173.33586282	0.9697871001	-173.33586282	0.2439528244	-83.33586282
0.720000000	0.2590586874	-86.19500502	0.9658615825	-176.19500502	0.9658615825	-176.19500502	0.2590586874	-86.19500502
0.730000000	0.2729513474	-89.04955963	0.9620278384	-179.04955963	0.9620278384	-179.04955963	0.2729513474	-89.04955963
0.740000000	0.2855434800	-91.90116353	0.9583657554	178.09883647	0.9583657554	178.09883647	0.2855434800	-91.90116353
0.750000000	0.2967486310	-94.75221072	0.9549556272	175.24778928	0.9549556272	175.24778928	0.2967486310	-94.75221072
0.760000000	0.3064795883	-97.60589757	0.9518772305	172.39410243	0.9518772305	172.39410243	0.3064795883	-97.60589757
0.770000000	0.3146464584	-100.46627002	0.9492089371	169.53372998	0.9492089371	169.53372998	0.3146464584	-100.46627002
0.780000000	0.3211544583	-103.33827499	0.9470268285	166.66172501	0.9470268285	166.66172501	0.3211544583	-103.33827499
0.790000000	0.3259014288	-106.22781760	0.9454037543	163.77218240	0.9454037543	163.77218240	0.3259014288	-106.22781760
0.800000000	0.3287750742	-109.14182607	0.9444082542	160.85817393	0.9444082542	160.85817393	0.3287750742	-109.14182607
0.810000000	0.3296499345	-112.08832531	0.9441032362	157.91167469	0.9441032362	157.91167469	0.3296499345	-112.08832531
0.820000000	0.3283841072	-115.07651944	0.9445442701	154.92348056	0.9445442701	154.92348056	0.3283841072	-115.07651944
0.830000000	0.3248157547	-118.11688225	0.9457773129	151.88311775	0.9457773129	151.88311775	0.3248157547	-118.11688225
0.840000000	0.3187594760	-121.22125242	0.9478356379	148.77874758	0.9478356379	148.77874758	0.3187594760	-121.22125242
0.850000000	0.3100026907	-124.40292712	0.9507356792	145.59707288	0.9507356792	145.59707288	0.3100026907	-124.40292712
0.860000000	0.2983022960	-127.67674333	0.9544714455	142.32325667	0.9544714455	142.32325667	0.2983022960	-127.67674333
0.870000000	0.2833820352	-131.05912885	0.9590071022	138.94087115	0.9590071022	138.94087115	0.2833820352	-131.05912885
0.880000000	0.2649312767	-134.56809615	0.9642672963	135.43190385	0.9642672963	135.43190385	0.2649312767	-134.56809615
0.890000000	0.2426062719	-138.22313847	0.9701248357	131.77686153	0.9701248357	131.77686153	0.2426062719	-138.22313847
0.900000000	0.2160354538	-142.04497164	0.9763855195	127.95502836	0.9763855195	127.95502836	0.2160354538	-142.04497164
0.910000000	0.1848309284	-146.05504464	0.9827703332	123.94495536	0.9827703332	123.94495536	0.1848309284	-146.05504464
0.920000000	0.1486089160	-150.27472292	0.9888960461	119.72527708	0.9888960461	119.72527708	0.1486089160	-150.27472292
0.930000000	0.1070222760	-154.72403516	0.9942566230	115.27596484	0.9942566230	115.27596484	0.1070222760	-154.72403516
0.940000000	0.0598079506	-159.41988256	0.9982099023	110.58011744	0.9982099023	110.58011744	0.0598079506	-159.41988256
0.950000000	0.0068504799	-164.37365752	0.9999765352	105.62634248	0.9999765352	105.62634248	0.0068504799	-164.37365752
0.960000000	0.0517411749	10.41166598	0.9986605283	100.41166598	0.9986605283	100.41166598	0.0517411749	10.41166598
0.970000000	0.1155529121	4.94471005	0.9933013261	94.94471005	0.9933013261	94.94471005	0.1155529121	4.94471005
0.980000000	0.1837988784	-0.75138971	0.9829638713	89.24861029	0.9829638713	89.24861029	0.1837988784	-0.75138971
0.990000000	0.2552942935	-6.63711484	0.9668633945	83.36288516	0.9668633945	83.36288516	0.2552942935	-6.63711484
1.000000000	0.3284933836	-12.65662997	0.9445062715	77.34337003	0.9445062715	77.34337003	0.3284933836	-12.65662997
1.010000000	0.4016058888	-18.74043789	0.9158125955	71.25956211	0.9158125955	71.25956211	0.4016058888	-18.74043789
1.020000000	0.4727807897	-24.81064755	0.8811800752	65.18935245	0.8811800752	65.18935245	0.4727807897	-24.81064755
1.030000000	0.5403180654	-30.78802941	0.8414608655	59.21197059	0.8414608655	59.21197059	0.5403180654	-30.78802941
1.040000000	0.6028542672	-36.59936180	0.7978513223	53.40063820	0.7978513223	53.40063820	0.6028542672	-36.59936180
1.050000000	0.6594760890	-42.18345717	0.7517255404	47.81654283	0.7517255404	47.81654283	0.6594760890	-42.18345717
1.060000000	0.7097437759	-47.49476637	0.7044599155	42.50523363	0.7044599155	42.50523363	0.7097437759	-47.49476637
1.070000000	0.7536370630	-52.50429719	0.6572907859	37.49570281	0.6572907859	37.49570281	0.7536370630	-52.50429719
1.080000000	0.7914551239	-57.19832378	0.6112272792	32.80167622	0.6112272792	32.80167622	0.7914551239	-57.19832378
1.090000000	0.8237041035	-61.57573826	0.5670198849	28.42426174	0.5670198849	28.42426174	0.8237041035	-61.57573826
1.100000000	0.8509964891	-65.64489422	0.5251713773	24.35510578	0.5251713773	24.35510578	0.8509964891	-65.64489422
1.110000000	0.8739741085	-69.42056810	0.4859724866	20.57943190	0.4859724866	20.57943190	0.8739741085	-69.42056810
1.120000000	0.8932566157	-72.92138650	0.4495471260	17.07861350	0.4495471260	17.07861350	0.8932566157	-72.92138650
1.130000000	0.9094117308	-76.16784071	0.4158969871	13.83215929	0.4158969871	13.83215929	0.9094117308	-76.16784071
1.140000000	0.9229415420	-79.18086714	0.3849401382	10.81913286	0.3849401382	10.81913286	0.9229415420	-79.18086714
1.150000000	0.9342793970	-81.98090321	0.3565417344	8.01909679	0.3565417344	8.01909679	0.9342793970	-81.98090321
1.160000000	0.9437930380	-84.58730959	0.3305369894	5.41269041	0.3305369894	5.41269041	0.9437930380	-84.58730959
1.170000000	0.9517909245	-87.01805660	0.3067475119	2.98194340	0.3067475119	2.98194340	0.9517909245	-87.01805660
1.180000000	0.9585297791	-89.28959128	0.2849923904	0.71040872	0.2849923904	0.71040872	0.9585297791	-89.28959128
1.190000000	0.9642222045	-91.41682164	0.2650953421	-1.41682164	0.2650953421	-1.41682164	0.9642222045	-91.41682164
1.200000000	0.9690437579	-93.41317237	0.2468890342	-3.41317237	0.2468890342	-3.41317237	0.9690437579	-93.41317237
1.210000000	0.9731392147	-95.29068081	0.2302174381	-5.29068081	0.2302174381	-5.29068081	0.9731392147	-95.29068081
1.220000000	0.9766279459	-97.06011211	0.2149368635	-7.06011211	0.2149368635	-7.06011211	0.9766279459	-97.06011211
1.230000000	0.9796084458	-98.73108060	0.2009161338	-8.73108060	0.2009161338	-8.73108060	0.9796084458	-98.73108060
1.240000000	0.9821620930	-100.31216906	0.1880362283	-10.31216906	0.1880362283	-10.31216906	0.9821620930	-100.31216906
1.250000000	0.9843562467	-101.81104151	0.1761896125	-11.81104151	0.1761896125	-11.81104151	0.9843562467	-101.81104151
1.260000000	0.9862467834	-103.23454691	0.1652794063	-13.23454691	0.1652794063	-13.23454691	0.9862467834	-103.23454691
1.270000000	0.9878801656	-104.58881317	0.1552184862	-14.58881317	0.1552184862	-14.58881317	0.9878801656	-104.58881317
1.280000000	0.9892951272	-105.87933112	0.1459285828	-15.87933112	0.1459285828	-15.87933112	0.9892951272	-105.87933112
1.290000000	0.9905240463	-107.11102904	0.1373394109	-17.11102904	0.1373394109	-17.11102904	0.9905240463	-107.11102904
1.300000000	0.9915940619	-108.28833844	0.1293878530	-18.28833844	0.1293878530	-18.28833844	0.9915940619	-108.28833844
1.310000000	0.9925279851	-109.41525190	0.1220172072	-19.41525190	0.1220172072	-19.41525190	0.9925279851	-109.41525190
1.320000000	0.9933450424	-110.49537374	0.1151765023	-20.49537374	0.1151765023	-20.49537374	0.9933450424	-110.49537374
1.330000000	0.9940614839	-111.53196446	0.1088198794	-21.53196446	0.1088198794	-21.53196446	0.9940614839	-111.53196446
1.340000000	0.9946910813	-112.52797965	0.1029060388	-22.52797965	0.1029060388	-22.52797965	0.9946910813	-112.52797965
1.350000000	0.9952455372	-113.48610401	0.0973977444	-23.48610401	0.0973977444	-23.48610401	0.9952455372	-113.48610401
1.360000000	0.9957348226	-114.40878118	0.0922613847	-24.40878118	0.0922613847	-24.40878118	0.9957348226	-114.40878118
1.370000000	0.9961674544	-115.29823991	0.0874665815	-25.29823991	0.0874665815	-25.29823991	0.9961674544	-115.29823991
1.380000000	0.9965507261	-116.15651702	0.0829858435	-26.15651702	0.0829858435	-26.15651702	0.9965507261	-116.15651702
1.390000000	0.9968908991	-116.98547754	0.0787942591	-26.98547754	0.0787942591	-26.98547754	0.9968908991	-116.98547754
1.400000000	0.9971933610	-117.78683249	0.0748692245	-27.78683249	0.0748692245	-27.78683249	0.9971933610	-117.78683249
1.410000000	0.9974627587	-118.56215454	0.0711902026	-28.56215454	0.0711902026	-28.56215454	0.9974627587	-118.56215454
1.420000000	0.9977031093	-119.31289180	0.0677385092	-29.31289180	0.0677385092	-29.31289180	0.9977031093	-119.31289180
1.430000000	0.9979178930	-120.04038009	0.0644971232	-30.04038009	0.0644971232	-30.04038009	0.9979178930	-120.04038009
1.440000000	0.9981101311	-120.74585374	0.0614505188	-30.74585374	0.0614505188	-30.74585374	0.9981101311	-120.74585374
1.450000000	0.9982824523	-121.43045524	0.0585845157	-31.43045524	0.0585845157	-31.43045524	0.9982824523	-121.43045524
1.460000000	0.9984371481	-122.09524377	0.0558861462	-32.09524377	0.0558861462	-32.09524377	0.9984371481	-122.09524377
1.470000000	0.9985762200	-122.74120281	0.0533435367	-32.74120281	0.0533435367	-32.74120281	0.9985762200	-122.74120281
1.480000000	0.9987014195	-123.36924701	0.0509458022	-33.36924701	0.0509458022	-33.36924701	0.9987014195	-123.36924701
1.490000000	0.9988142821	-123.98022818	0.0486829520	-33.98022818	0.0486829520	-33.98022818	0.9988142821	-123.98022818
1.500000000	0.9989161566	-124.57494083	0.0465458058	-34.57494083	0.0465458058	-34.57494083	0.9989161566	-124.57494083
1.510000000	0.9990082295	-125.15412699	0.0445259181	-35.15412699	0.0445259181	-35.15412699	0.9990082295	-125.15412699
1.520000000	0.9990915465	-125.71848063	0.0426155108	-35.71848063	0.0426155108	-35.71848063	0.9990915465	-125.71848063
1.530000000	0.9991670306	-126.26865166	0.0408074126	-36.26865166	0.0408074126	-36.26865166	0.9991670306	-126.26865166
1.540000000	0.9992354981	-126.80524943	0.0390950049	-36.80524943	0.0390950049	-36.80524943	0.9992354981	-126.80524943
1.550000000	0.9992976715	-127.32884599	0.0374721724	-37.32884599	0.0374721724	-37.32884599	0.9992976715	-127.32884599
1.560000000	0.9993541919	-127.83997904	0.0359332596	-37.83997904	0.0359332596	-37.83997904	0.9993541919	-127.83997904
1.570000000	0.9994056284	-128.33915450	0.0344730307	-38.33915450	0.0344730307	-38.33915450	0.9994056284	-128.33915450
1.580000000	0.9994524874	-128.82684901	0.0330866340	-38.82684901	0.0330866340	-38.82684901	0.9994524874	-128.82684901
1.590000000	0.9994952198	-129.30351201	0.0317695696	-39.30351201	0.0317695696	-39.30351201	0.9994952198	-129.30351201
1.600000000	0.9995342278	-129.76956781	0.0305176596	-39.76956781	0.0305176596	-39.76956781	0.9995342278	-129.76956781
1.610000000	0.9995698704	-130.22541736	0.0293270222	-40.22541736	0.0293270222	-40.22541736	0.9995698704	-130.22541736
1.620000000	0.9996024688	-130.67143994	0.0281940469	-40.67143994	0.0281940469	-40.67143994	0.9996024688	-130.67143994
1.630000000	0.9996323107	-131.10799462	0.0271153735	-41.10799462	0.0271153735	-41.10799462	0.9996323107	-131.10799462
1.640000000	0.9996596536	-131.53542170	0.0260878714	-41.53542170	0.0260878714	-41.53542170	0.9996596536	-131.53542170
1.650000000	0.9996847289	-131.95404395	0.0251086220	-41.95404395	0.0251086220	-41.95404395	0.9996847289	-131.95404395
1.660000000	0.9997077444	-132.36416780	0.0241749019	-42.36416780	0.0241749019	-42.36416780	0.9997077444	-132.36416780
1.670000000	0.9997288870	-132.76608439	0.0232841681	-42.76608439	0.0232841681	-42.76608439	0.9997288870	-132.76608439
1.680000000	0.9997483252	-133.16007056	0.0224340443	-43.16007056	0.0224340443	-43.16007056	0.9997483252	-133.16007056
1.690000000	0.9997662106	-133.54638979	0.0216223081	-43.54638979	0.0216223081	-43.54638979	0.9997662106	-133.54638979
